
T1818 000:301 SEGGER J-Link V5.12e Log File (0001ms, 0273ms total)
T1818 000:301 DLL Compiled: Apr 29 2016 15:03:58 (0001ms, 0273ms total)
T1818 000:301 Logging started @ 2016-05-30 15:51 (0001ms, 0273ms total)
T1818 000:302 JLINK_SetWarnOutHandler(...) (0000ms, 0273ms total)
T1818 000:302 JLINK_OpenEx(...)
Firmware: J-Link ARM-OB STM32 compiled Aug 22 2012 19:52:04
Hardware: V7.00
S/N: 20090928
Feature(s): RDI,FlashDL,FlashBP,JFlash,GDBFull  returns O.K. (0270ms, 0543ms total)
T1818 000:572 JLINK_SetErrorOutHandler(...) (0000ms, 0543ms total)
T1818 000:572 JLINK_ExecCommand("ProjectFile = "C:\Users\YTAO\Desktop\Hawk A keil°æ²âÊÔ´úÂë\Hawk_A\STM32F427\User\JLinkSettings.ini"", ...)  returns 0x00 (0001ms, 0544ms total)
T1818 000:573 JLINK_ExecCommand("Device = STM32F427VI", ...)Device "STM32F427VI" selected.  returns 0x00 (0007ms, 0551ms total)
T1818 000:580 JLINK_ExecCommand("DisableConnectionTimeout", ...)  returns 0x01 (0000ms, 0551ms total)
T1818 000:580 JLINK_GetHardwareVersion()  returns 0x11170 (0000ms, 0551ms total)
T1818 000:580 JLINK_GetDLLVersion()  returns 51205 (0000ms, 0551ms total)
T1818 000:580 JLINK_GetFirmwareString(...) (0000ms, 0551ms total)
T1818 000:581 JLINK_GetDLLVersion()  returns 51205 (0000ms, 0551ms total)
T1818 000:581 JLINK_GetCompileDateTime() (0000ms, 0551ms total)
T1818 000:581 JLINK_GetFirmwareString(...) (0000ms, 0551ms total)
T1818 000:582 JLINK_GetHardwareVersion()  returns 0x11170 (0000ms, 0552ms total)
T1818 000:582 JLINK_TIF_Select(JLINKARM_TIF_SWD)  returns 0x00 (0004ms, 0556ms total)
T1818 000:586 JLINK_SetSpeed(5000) (0001ms, 0557ms total)
T1818 000:587 JLINK_GetId() >0x108 TIF>Found SWD-DP with ID 0x2BA01477 >0x0D TIF> >0x28 TIF> >0x0D TIF> >0x28 TIF> >0x0D TIF> >0x28 TIF> >0x0D TIF> >0x28 TIF> >0x0D TIF> >0x21 TIF> >0x0D TIF> >0x28 TIF> >0x0D TIF> >0x28 TIF> >0x0D TIF> >0x28 TIF> >0x0D TIF> >0x21 TIF> >0x0D TIF> >0x21 TIF> >0x0D TIF> >0x28 TIF> >0x0D TIF> >0x21 TIF> >0x0D TIF> >0x21 TIF> >0x0D TIF> >0x28 TIF> >0x0D TIF> >0x21 TIF> >0x0D TIF> >0x21 TIF> >0x0D TIF> >0x28 TIF> >0x0D TIF> >0x21 TIF> >0x0D TIF> >0x21 TIF> >0x0D TIF>
 >0x28 TIF> >0x0D TIF> >0x21 TIF> >0x0D TIF> >0x21 TIF> >0x0D TIF> >0x28 TIF> >0x0D TIF> >0x21 TIF> >0x0D TIF> >0x21 TIF> >0x0D TIF> >0x28 TIF> >0x0D TIF> >0x21 TIF> >0x0D TIF> >0x21 TIF> >0x108 TIF>Found SWD-DP with ID 0x2BA01477 >0x0D TIF> >0x28 TIF> >0x0D TIF> >0x28 TIF> >0x0D TIF> >0x28 TIF> >0x0D TIF> >0x28 TIF> >0x0D TIF> >0x21 TIF> >0x0D TIF> >0x28 TIF> >0x0D TIF> >0x28 TIF> >0x0D TIF> >0x21 TIF> >0x0D TIF> >0x21 TIF> >0x0D TIF> >0x21 TIF> >0x0D TIF> >0x28 TIF> >0x0D TIF> >0x28 TIF> >0x0D TIF>
 >0x28 TIF> >0x0D TIF> >0x21 TIF> >0x0D TIF> >0x21 TIF> >0x0D TIF> >0x28 TIF> >0x0D TIF> >0x21 TIF> >0x0D TIF> >0x21 TIF>Found Cortex-M4 r0p1, Little endian. -- CPU_ReadMem(4 bytes @ 0xE000EDF0) -- CPU_ReadMem(4 bytes @ 0xE0002000)FPUnit: 6 code (BP) slots and 2 literal slots -- CPU_ReadMem(4 bytes @ 0xE000EDFC) -- CPU_ReadMem(4 bytes @ 0xE0001000) -- CPU_WriteMem(4 bytes @ 0xE0001000) -- CPU_ReadMem(4 bytes @ 0xE000ED88) -- CPU_WriteMem(4 bytes @ 0xE000ED88) -- CPU_ReadMem(4 bytes @ 0xE000ED88)
 -- CPU_WriteMem(4 bytes @ 0xE000ED88)CoreSight components:ROMTbl 0 @ E00FF000 -- CPU_ReadMem(16 bytes @ 0xE00FF000) -- CPU_ReadMem(16 bytes @ 0xE000EFF0) -- CPU_ReadMem(16 bytes @ 0xE000EFE0)ROMTbl 0 [0]: FFF0F000, CID: B105E00D, PID: 000BB00C SCS -- CPU_ReadMem(16 bytes @ 0xE0001FF0) -- CPU_ReadMem(16 bytes @ 0xE0001FE0)ROMTbl 0 [1]: FFF02000, CID: B105E00D, PID: 003BB002 DWT -- CPU_ReadMem(16 bytes @ 0xE0002FF0) -- CPU_ReadMem(16 bytes @ 0xE0002FE0)
ROMTbl 0 [2]: FFF03000, CID: B105E00D, PID: 002BB003 FPB -- CPU_ReadMem(16 bytes @ 0xE0000FF0) -- CPU_ReadMem(16 bytes @ 0xE0000FE0)ROMTbl 0 [3]: FFF01000, CID: B105E00D, PID: 003BB001 ITM -- CPU_ReadMem(16 bytes @ 0xE00FF010) -- CPU_ReadMem(16 bytes @ 0xE0040FF0) -- CPU_ReadMem(16 bytes @ 0xE0040FE0)ROMTbl 0 [4]: FFF41000, CID: B105900D, PID: 000BB9A1 TPIU -- CPU_ReadMem(16 bytes @ 0xE0041FF0) -- CPU_ReadMem(16 bytes @ 0xE0041FE0)ROMTbl 0 [5]: FFF42000, CID: B105900D, PID: 000BB925 ETM >0x0D TIF>
 >0x21 TIF>  returns 0x2BA01477 (0128ms, 0685ms total)
T1818 000:715 JLINK_GetDLLVersion()  returns 51205 (0000ms, 0685ms total)
T1818 000:715 JLINK_CORE_GetFound()  returns 0xE0000FF (0000ms, 0685ms total)
T1818 000:715 JLINK_GetDebugInfo(0x100) -- Value=0xE00FF000  returns 0x00 (0000ms, 0685ms total)
T1818 000:716 JLINK_ReadMem (0xE00FF000, 0x0020 Bytes, ...) -- CPU is running -- CPU_ReadMem(32 bytes @ 0xE00FF000) - Data: 03 F0 F0 FF 03 20 F0 FF 03 30 F0 FF 03 10 F0 FF ...  returns 0x00 (0001ms, 0686ms total)
T1818 000:717 JLINK_ReadMem (0xE000EFF0, 0x0010 Bytes, ...) -- CPU is running -- CPU_ReadMem(16 bytes @ 0xE000EFF0) - Data: 0D 00 00 00 E0 00 00 00 05 00 00 00 B1 00 00 00  returns 0x00 (0001ms, 0687ms total)
T1818 000:718 JLINK_ReadMem (0xE000EFD0, 0x0020 Bytes, ...) -- CPU is running -- CPU_ReadMem(32 bytes @ 0xE000EFD0) - Data: 04 00 00 00 00 00 00 00 00 00 00 00 00 00 00 00 ...  returns 0x00 (0001ms, 0688ms total)
T1818 000:719 JLINK_ReadMem (0xE0001FF0, 0x0010 Bytes, ...) -- CPU is running -- CPU_ReadMem(16 bytes @ 0xE0001FF0) - Data: 0D 00 00 00 E0 00 00 00 05 00 00 00 B1 00 00 00  returns 0x00 (0001ms, 0689ms total)
T1818 000:720 JLINK_ReadMem (0xE0001FD0, 0x0020 Bytes, ...) -- CPU is running -- CPU_ReadMem(32 bytes @ 0xE0001FD0) - Data: 04 00 00 00 00 00 00 00 00 00 00 00 00 00 00 00 ...  returns 0x00 (0001ms, 0690ms total)
T1818 000:721 JLINK_ReadMem (0xE0002FF0, 0x0010 Bytes, ...) -- CPU is running -- CPU_ReadMem(16 bytes @ 0xE0002FF0) - Data: 0D 00 00 00 E0 00 00 00 05 00 00 00 B1 00 00 00  returns 0x00 (0001ms, 0691ms total)
T1818 000:722 JLINK_ReadMem (0xE0002FD0, 0x0020 Bytes, ...) -- CPU is running -- CPU_ReadMem(32 bytes @ 0xE0002FD0) - Data: 04 00 00 00 00 00 00 00 00 00 00 00 00 00 00 00 ...  returns 0x00 (0001ms, 0692ms total)
T1818 000:723 JLINK_ReadMem (0xE0000FF0, 0x0010 Bytes, ...) -- CPU is running -- CPU_ReadMem(16 bytes @ 0xE0000FF0) - Data: 0D 00 00 00 E0 00 00 00 05 00 00 00 B1 00 00 00  returns 0x00 (0001ms, 0693ms total)
T1818 000:724 JLINK_ReadMem (0xE0000FD0, 0x0020 Bytes, ...) -- CPU is running -- CPU_ReadMem(32 bytes @ 0xE0000FD0) - Data: 04 00 00 00 00 00 00 00 00 00 00 00 00 00 00 00 ...  returns 0x00 (0001ms, 0694ms total)
T1818 000:725 JLINK_ReadMem (0xE0040FF0, 0x0010 Bytes, ...) -- CPU is running -- CPU_ReadMem(16 bytes @ 0xE0040FF0) - Data: 0D 00 00 00 90 00 00 00 05 00 00 00 B1 00 00 00  returns 0x00 (0001ms, 0695ms total)
T1818 000:726 JLINK_ReadMem (0xE0040FD0, 0x0020 Bytes, ...) -- CPU is running -- CPU_ReadMem(32 bytes @ 0xE0040FD0) - Data: 04 00 00 00 00 00 00 00 00 00 00 00 00 00 00 00 ...  returns 0x00 (0001ms, 0696ms total)
T1818 000:727 JLINK_ReadMem (0xE0041FF0, 0x0010 Bytes, ...) -- CPU is running -- CPU_ReadMem(16 bytes @ 0xE0041FF0) - Data: 0D 00 00 00 90 00 00 00 05 00 00 00 B1 00 00 00  returns 0x00 (0001ms, 0697ms total)
T1818 000:728 JLINK_ReadMem (0xE0041FD0, 0x0020 Bytes, ...) -- CPU is running -- CPU_ReadMem(32 bytes @ 0xE0041FD0) - Data: 04 00 00 00 00 00 00 00 00 00 00 00 00 00 00 00 ...  returns 0x00 (0001ms, 0698ms total)
T1818 000:729 JLINK_ReadMemU32(0xE000EF40, 0x0001 Items, ...) -- CPU is running -- CPU_ReadMem(4 bytes @ 0xE000EF40) - Data: 21 00 11 10  returns 0x01 (0001ms, 0699ms total)
T1818 000:730 JLINK_ReadMemU32(0xE000EF44, 0x0001 Items, ...) -- CPU is running -- CPU_ReadMem(4 bytes @ 0xE000EF44) - Data: 11 00 00 11  returns 0x01 (0001ms, 0700ms total)
T1818 000:731 JLINK_ReadMemU32(0xE000ED00, 0x0001 Items, ...) -- CPU is running -- CPU_ReadMem(4 bytes @ 0xE000ED00) - Data: 41 C2 0F 41  returns 0x01 (0001ms, 0701ms total)
T1818 000:732 JLINK_SetResetType(JLINKARM_RESET_TYPE_NORMAL)  returns JLINKARM_RESET_TYPE_NORMAL (0000ms, 0701ms total)
T1818 000:732 JLINK_Reset() -- CPU is running -- CPU_WriteMem(4 bytes @ 0xE000EDF0) -- CPU is running -- CPU_WriteMem(4 bytes @ 0xE000EDFC) >0x35 TIF> -- CPU is running -- CPU_WriteMem(4 bytes @ 0xE000ED0C) -- CPU is running -- CPU_ReadMem(4 bytes @ 0xE000EDF0) -- CPU is running -- CPU_ReadMem(4 bytes @ 0xE000EDF0) -- CPU is running -- CPU_WriteMem(4 bytes @ 0xE000EDF0) -- CPU is running -- CPU_WriteMem(4 bytes @ 0xE000EDFC) -- CPU is running -- CPU_ReadMem(4 bytes @ 0xE000EDF0)
 -- CPU_WriteMem(4 bytes @ 0xE0002000) -- CPU_ReadMem(4 bytes @ 0xE000EDFC) -- CPU_ReadMem(4 bytes @ 0xE0001000) (0024ms, 0725ms total)
T1818 000:756 JLINK_ReadReg(R15 (PC))  returns 0x0800041C (0000ms, 0725ms total)
T1818 000:756 JLINK_ReadReg(XPSR)  returns 0x01000000 (0000ms, 0725ms total)
T1818 000:756 JLINK_Halt()  returns 0x00 (0000ms, 0725ms total)
T1818 000:756 JLINK_IsHalted()  returns TRUE (0000ms, 0725ms total)
T1818 000:756 JLINK_ReadMemU32(0xE000EDF0, 0x0001 Items, ...) -- CPU_ReadMem(4 bytes @ 0xE000EDF0) - Data: 03 00 03 00  returns 0x01 (0002ms, 0727ms total)
T1818 000:758 JLINK_WriteU32(0xE000EDF0, 0xA05F0003) -- CPU_WriteMem(4 bytes @ 0xE000EDF0)  returns 0x00 (0001ms, 0728ms total)
T1818 000:759 JLINK_WriteU32(0xE000EDFC, 0x01000000) -- CPU_WriteMem(4 bytes @ 0xE000EDFC)  returns 0x00 (0001ms, 0729ms total)
T1818 000:761 JLINK_GetHWStatus(...)  returns 0x00 (0000ms, 0729ms total)
T1818 000:761 JLINK_GetNumBPUnits(Type = 0xFFFFFF00)  returns 0x06 (0000ms, 0729ms total)
T1818 000:761 JLINK_GetNumBPUnits(Type = 0xF0)  returns 0x2000 (0000ms, 0729ms total)
T1818 000:761 JLINK_GetNumWPUnits()  returns 0x04 (0000ms, 0729ms total)
T1818 000:762 JLINK_GetSpeed()  returns 0xFA0 (0000ms, 0729ms total)
T1818 000:762 JLINK_ReadMemU32(0xE000E004, 0x0001 Items, ...) -- CPU_ReadMem(4 bytes @ 0xE000E004) - Data: 02 00 00 00  returns 0x01 (0001ms, 0730ms total)
T1818 000:763 JLINK_ReadMemU32(0xE000E004, 0x0001 Items, ...) -- CPU_ReadMem(4 bytes @ 0xE000E004) - Data: 02 00 00 00  returns 0x01 (0001ms, 0731ms total)
T1818 000:764 JLINK_WriteMem(0xE0001000, 0x001C Bytes, ...) - Data: 01 00 00 00 00 00 00 00 00 00 00 00 00 00 00 00 ... -- CPU_WriteMem(28 bytes @ 0xE0001000)  returns 0x1C (0002ms, 0733ms total)
T1818 000:766 JLINK_ReadMem (0xE0001000, 0x001C Bytes, ...) -- CPU_ReadMem(28 bytes @ 0xE0001000) - Data: 01 00 00 40 00 00 00 00 00 00 00 00 00 00 00 00 ...  returns 0x00 (0001ms, 0734ms total)
T1818 000:767 JLINK_ReadReg(R15 (PC))  returns 0x0800041C (0000ms, 0734ms total)
T1818 000:767 JLINK_ReadReg(XPSR)  returns 0x01000000 (0000ms, 0734ms total)
T1818 000:884 JLINK_SetResetType(JLINKARM_RESET_TYPE_NORMAL)  returns JLINKARM_RESET_TYPE_NORMAL (0000ms, 0734ms total)
T1818 000:884 JLINK_Reset() -- CPU_WriteMem(4 bytes @ 0xE000EDF0) -- CPU_WriteMem(4 bytes @ 0xE000EDFC) >0x35 TIF> -- CPU_WriteMem(4 bytes @ 0xE000ED0C) -- CPU_ReadMem(4 bytes @ 0xE000EDF0) -- CPU_ReadMem(4 bytes @ 0xE000EDF0) -- CPU_WriteMem(4 bytes @ 0xE000EDF0) -- CPU_WriteMem(4 bytes @ 0xE000EDFC) -- CPU is running -- CPU_ReadMem(4 bytes @ 0xE000EDF0) -- CPU_WriteMem(4 bytes @ 0xE0002000) -- CPU_ReadMem(4 bytes @ 0xE000EDFC) -- CPU_ReadMem(4 bytes @ 0xE0001000) (0025ms, 0759ms total)
T1818 000:909 JLINK_ReadReg(R15 (PC))  returns 0x0800041C (0000ms, 0759ms total)
T1818 000:909 JLINK_ReadReg(XPSR)  returns 0x01000000 (0000ms, 0759ms total)
T1818 001:002 JLINK_ReadMem (0x0800041C, 0x003C Bytes, ...) -- CPU_ReadMem(128 bytes @ 0x08000400) -- Updating C cache (128 bytes @ 0x08000400) -- Read from C cache (60 bytes @ 0x0800041C) - Data: 06 48 80 47 06 48 00 47 FE E7 FE E7 FE E7 FE E7 ...  returns 0x00 (0002ms, 0762ms total)
T1818 001:421 JLINK_ReadMem (0x00000000, 0x00F5 Bytes, ...) -- CPU_ReadMem(4 bytes @ 0x00000004) -- CPU_ReadMem(256 bytes @ 0x08000000) -- Updating C cache (256 bytes @ 0x08000000) -- Read from C cache (245 bytes @ 0x08000000) - Data: 30 0F 00 20 1D 04 00 08 B9 04 00 08 BB 04 00 08 ...  returns 0x00 (0005ms, 0767ms total)
T1818 001:540 JLINK_ReadMem (0x00000000, 0x021C Bytes, ...) -- CPU_ReadMem(320 bytes @ 0x08000100) -- Updating C cache (320 bytes @ 0x08000100) -- Read from C cache (540 bytes @ 0x08000000) - Data: 30 0F 00 20 1D 04 00 08 B9 04 00 08 BB 04 00 08 ...  returns 0x00 (0004ms, 0771ms total)
T1818 001:731 JLINK_ReadMem (0x20000980, 0x0010 Bytes, ...) -- CPU_ReadMem(64 bytes @ 0x20000980) -- Updating C cache (64 bytes @ 0x20000980) -- Read from C cache (16 bytes @ 0x20000980) - Data: 00 00 00 00 00 00 00 00 00 00 00 00 00 00 00 00  returns 0x00 (0001ms, 0772ms total)
T2FB4 001:756 JLINK_SetBPEx(Addr = 0x08000440, Type = 0xFFFFFFF2)  returns 0x00000001 (0001ms, 0773ms total)
T2FB4 001:757 JLINK_Go() -- CPU_WriteMem(4 bytes @ 0xE0002000) -- CPU_ReadMem(4 bytes @ 0xE0001000) -- CPU_WriteMem(4 bytes @ 0xE0002008) -- CPU_WriteMem(4 bytes @ 0xE000200C) -- CPU_WriteMem(4 bytes @ 0xE0002010) -- CPU_WriteMem(4 bytes @ 0xE0002014) -- CPU_WriteMem(4 bytes @ 0xE0002018) -- CPU_WriteMem(4 bytes @ 0xE000201C) -- CPU_WriteMem(4 bytes @ 0xE0001004) (0010ms, 0783ms total)
T2FB4 001:867 JLINK_IsHalted()  returns TRUE (0004ms, 0787ms total)
T2FB4 001:871 JLINK_Halt()  returns 0x00 (0000ms, 0783ms total)
T2FB4 001:871 JLINK_IsHalted()  returns TRUE (0000ms, 0783ms total)
T2FB4 001:871 JLINK_IsHalted()  returns TRUE (0000ms, 0783ms total)
T2FB4 001:871 JLINK_IsHalted()  returns TRUE (0000ms, 0783ms total)
T2FB4 001:871 JLINK_ReadReg(R15 (PC))  returns 0x08000440 (0000ms, 0783ms total)
T2FB4 001:871 JLINK_ReadReg(XPSR)  returns 0x61000000 (0000ms, 0783ms total)
T2FB4 001:871 JLINK_ClrBPEx(BPHandle = 0x00000001)  returns 0x00 (0000ms, 0783ms total)
T2FB4 001:871 JLINK_ReadMemU32(0xE000ED30, 0x0001 Items, ...) -- CPU_ReadMem(4 bytes @ 0xE000ED30) - Data: 03 00 00 00  returns 0x01 (0002ms, 0785ms total)
T2FB4 001:873 JLINK_ReadMemU32(0xE0001028, 0x0001 Items, ...) -- CPU_ReadMem(4 bytes @ 0xE0001028) - Data: 00 00 00 00  returns 0x01 (0001ms, 0786ms total)
T2FB4 001:874 JLINK_ReadMemU32(0xE0001038, 0x0001 Items, ...) -- CPU_ReadMem(4 bytes @ 0xE0001038) - Data: 00 02 00 00  returns 0x01 (0001ms, 0787ms total)
T2FB4 001:875 JLINK_ReadMemU32(0xE0001048, 0x0001 Items, ...) -- CPU_ReadMem(4 bytes @ 0xE0001048) - Data: 00 00 00 00  returns 0x01 (0001ms, 0788ms total)
T2FB4 001:876 JLINK_ReadMemU32(0xE0001058, 0x0001 Items, ...) -- CPU_ReadMem(4 bytes @ 0xE0001058) - Data: 00 00 00 00  returns 0x01 (0001ms, 0789ms total)
T2FB4 001:877 JLINK_ReadReg(R0)  returns 0x08000441 (0001ms, 0790ms total)
T2FB4 001:878 JLINK_ReadReg(R1)  returns 0x20000F30 (0000ms, 0790ms total)
T2FB4 001:878 JLINK_ReadReg(R2)  returns 0x00000000 (0000ms, 0790ms total)
T2FB4 001:878 JLINK_ReadReg(R3)  returns 0x08007F09 (0000ms, 0790ms total)
T2FB4 001:878 JLINK_ReadReg(R4)  returns 0x080080D0 (0000ms, 0790ms total)
T2FB4 001:878 JLINK_ReadReg(R5)  returns 0x080080D0 (0000ms, 0790ms total)
T2FB4 001:878 JLINK_ReadReg(R6)  returns 0x00000000 (0000ms, 0790ms total)
T2FB4 001:878 JLINK_ReadReg(R7)  returns 0x00000000 (0000ms, 0790ms total)
T2FB4 001:878 JLINK_ReadReg(R8)  returns 0x00000000 (0000ms, 0790ms total)
T2FB4 001:878 JLINK_ReadReg(R9)  returns 0x00000000 (0000ms, 0790ms total)
T2FB4 001:878 JLINK_ReadReg(R10)  returns 0x00000000 (0000ms, 0790ms total)
T2FB4 001:878 JLINK_ReadReg(R11)  returns 0x00000000 (0000ms, 0790ms total)
T2FB4 001:878 JLINK_ReadReg(R12)  returns 0x00000000 (0000ms, 0790ms total)
T2FB4 001:878 JLINK_ReadReg(R13 (SP))  returns 0x20000F30 (0000ms, 0790ms total)
T2FB4 001:878 JLINK_ReadReg(R14)  returns 0x08007421 (0000ms, 0790ms total)
T2FB4 001:879 JLINK_ReadReg(R15 (PC))  returns 0x08000440 (0000ms, 0791ms total)
T2FB4 001:879 JLINK_ReadReg(XPSR)  returns 0x61000000 (0000ms, 0791ms total)
T2FB4 001:879 JLINK_ReadReg(MSP)  returns 0x20000F30 (0000ms, 0791ms total)
T2FB4 001:879 JLINK_ReadReg(PSP)  returns 0x00000000 (0000ms, 0791ms total)
T2FB4 001:879 JLINK_ReadReg(CFBP)  returns 0x00000000 (0000ms, 0791ms total)
T2FB4 001:879 JLINK_ReadReg(FPSCR)  returns 0x00000000 (0005ms, 0796ms total)
T2FB4 001:884 JLINK_ReadReg(FPS0)  returns 0x00000000 (0000ms, 0796ms total)
T2FB4 001:884 JLINK_ReadReg(FPS1)  returns 0x00000000 (0000ms, 0796ms total)
T2FB4 001:884 JLINK_ReadReg(FPS2)  returns 0x00000000 (0000ms, 0796ms total)
T2FB4 001:884 JLINK_ReadReg(FPS3)  returns 0x00000000 (0000ms, 0796ms total)
T2FB4 001:884 JLINK_ReadReg(FPS4)  returns 0x00000000 (0001ms, 0797ms total)
T2FB4 001:885 JLINK_ReadReg(FPS5)  returns 0x00000000 (0000ms, 0797ms total)
T2FB4 001:885 JLINK_ReadReg(FPS6)  returns 0x00000000 (0000ms, 0797ms total)
T2FB4 001:885 JLINK_ReadReg(FPS7)  returns 0x00000000 (0000ms, 0797ms total)
T2FB4 001:885 JLINK_ReadReg(FPS8)  returns 0x00000000 (0000ms, 0797ms total)
T2FB4 001:885 JLINK_ReadReg(FPS9)  returns 0x00000000 (0000ms, 0797ms total)
T2FB4 001:885 JLINK_ReadReg(FPS10)  returns 0x00000000 (0000ms, 0797ms total)
T2FB4 001:885 JLINK_ReadReg(FPS11)  returns 0x00000000 (0000ms, 0797ms total)
T2FB4 001:885 JLINK_ReadReg(FPS12)  returns 0x00000000 (0000ms, 0797ms total)
T2FB4 001:885 JLINK_ReadReg(FPS13)  returns 0x00000000 (0000ms, 0797ms total)
T2FB4 001:885 JLINK_ReadReg(FPS14)  returns 0x00000000 (0000ms, 0797ms total)
T2FB4 001:885 JLINK_ReadReg(FPS15)  returns 0x00000000 (0000ms, 0797ms total)
T2FB4 001:885 JLINK_ReadReg(FPS16)  returns 0x00000000 (0000ms, 0797ms total)
T2FB4 001:885 JLINK_ReadReg(FPS17)  returns 0x00000000 (0000ms, 0797ms total)
T2FB4 001:886 JLINK_ReadReg(FPS18)  returns 0x00000000 (0000ms, 0797ms total)
T2FB4 001:886 JLINK_ReadReg(FPS19)  returns 0x00000000 (0000ms, 0797ms total)
T2FB4 001:886 JLINK_ReadReg(FPS20)  returns 0x00000000 (0000ms, 0797ms total)
T2FB4 001:886 JLINK_ReadReg(FPS21)  returns 0x00000000 (0000ms, 0797ms total)
T2FB4 001:886 JLINK_ReadReg(FPS22)  returns 0x00000000 (0000ms, 0797ms total)
T2FB4 001:886 JLINK_ReadReg(FPS23)  returns 0x00000000 (0000ms, 0797ms total)
T2FB4 001:886 JLINK_ReadReg(FPS24)  returns 0x00000000 (0000ms, 0797ms total)
T2FB4 001:886 JLINK_ReadReg(FPS25)  returns 0x00000000 (0000ms, 0797ms total)
T2FB4 001:886 JLINK_ReadReg(FPS26)  returns 0x00000000 (0000ms, 0797ms total)
T2FB4 001:886 JLINK_ReadReg(FPS27)  returns 0x00000000 (0000ms, 0797ms total)
T2FB4 001:886 JLINK_ReadReg(FPS28)  returns 0x00000000 (0000ms, 0797ms total)
T2FB4 001:886 JLINK_ReadReg(FPS29)  returns 0x00000000 (0000ms, 0797ms total)
T2FB4 001:886 JLINK_ReadReg(FPS30)  returns 0x00000000 (0000ms, 0797ms total)
T2FB4 001:886 JLINK_ReadReg(FPS31)  returns 0x00000000 (0000ms, 0797ms total)
T1818 001:896 JLINK_ReadMem (0x20000980, 0x0010 Bytes, ...) -- CPU_ReadMem(64 bytes @ 0x20000980) -- Updating C cache (64 bytes @ 0x20000980) -- Read from C cache (16 bytes @ 0x20000980) - Data: 00 00 00 00 00 00 00 00 00 00 00 00 00 00 00 00  returns 0x00 (0002ms, 0799ms total)
T2FB4 014:478 JLINK_SetBPEx(Addr = 0x080059D4, Type = 0xFFFFFFF2)  returns 0x00000002 (0000ms, 0799ms total)
T2FB4 014:478 JLINK_Go() -- CPU_WriteMem(4 bytes @ 0xE0002000) -- CPU_ReadMem(4 bytes @ 0xE0001000) -- CPU_WriteMem(4 bytes @ 0xE0002008) (0005ms, 0804ms total)
T2FB4 014:583 JLINK_IsHalted()  returns FALSE (0001ms, 0805ms total)
T2FB4 014:684 JLINK_IsHalted()  returns FALSE (0001ms, 0805ms total)
T2FB4 014:785 JLINK_IsHalted()  returns FALSE (0001ms, 0805ms total)
T2FB4 014:886 JLINK_IsHalted()  returns FALSE (0001ms, 0805ms total)
T2FB4 014:987 JLINK_ReadMemU32(0xE0001004, 0x0001 Items, ...) -- CPU is running -- CPU_ReadMem(4 bytes @ 0xE0001004) - Data: FA 81 6A 05  returns 0x01 (0001ms, 0805ms total)
T2FB4 014:990 JLINK_IsHalted()  returns FALSE (0001ms, 0806ms total)
T2FB4 015:092 JLINK_IsHalted()  returns FALSE (0001ms, 0806ms total)
T2FB4 015:193 JLINK_IsHalted()  returns FALSE (0001ms, 0806ms total)
T2FB4 015:294 JLINK_IsHalted()  returns FALSE (0001ms, 0806ms total)
T2FB4 015:395 JLINK_IsHalted()  returns FALSE (0001ms, 0806ms total)
T2FB4 015:496 JLINK_IsHalted()  returns FALSE (0001ms, 0806ms total)
T2FB4 015:597 JLINK_ReadMemU32(0xE0001004, 0x0001 Items, ...) -- CPU is running -- CPU_ReadMem(4 bytes @ 0xE0001004) - Data: 57 D5 F5 0B  returns 0x01 (0001ms, 0806ms total)
T2FB4 015:598 JLINK_IsHalted()  returns FALSE (0001ms, 0807ms total)
T2FB4 015:699 JLINK_IsHalted()  returns FALSE (0001ms, 0807ms total)
T2FB4 015:800 JLINK_IsHalted()  returns FALSE (0001ms, 0807ms total)
T2FB4 015:901 JLINK_IsHalted()  returns TRUE (0004ms, 0810ms total)
T2FB4 015:905 JLINK_Halt()  returns 0x00 (0000ms, 0806ms total)
T2FB4 015:905 JLINK_IsHalted()  returns TRUE (0000ms, 0806ms total)
T2FB4 015:905 JLINK_IsHalted()  returns TRUE (0000ms, 0806ms total)
T2FB4 015:905 JLINK_IsHalted()  returns TRUE (0000ms, 0806ms total)
T2FB4 015:905 JLINK_ReadReg(R15 (PC))  returns 0x080059D4 (0000ms, 0806ms total)
T2FB4 015:905 JLINK_ReadReg(XPSR)  returns 0x6100002D (0000ms, 0806ms total)
T2FB4 015:905 JLINK_ClrBPEx(BPHandle = 0x00000002)  returns 0x00 (0000ms, 0806ms total)
T2FB4 015:905 JLINK_ReadMemU32(0xE000ED30, 0x0001 Items, ...) -- CPU_ReadMem(4 bytes @ 0xE000ED30) - Data: 03 00 00 00  returns 0x01 (0002ms, 0808ms total)
T2FB4 015:907 JLINK_ReadMemU32(0xE0001028, 0x0001 Items, ...) -- CPU_ReadMem(4 bytes @ 0xE0001028) - Data: 00 00 00 00  returns 0x01 (0001ms, 0809ms total)
T2FB4 015:908 JLINK_ReadMemU32(0xE0001038, 0x0001 Items, ...) -- CPU_ReadMem(4 bytes @ 0xE0001038) - Data: 00 02 00 00  returns 0x01 (0001ms, 0810ms total)
T2FB4 015:909 JLINK_ReadMemU32(0xE0001048, 0x0001 Items, ...) -- CPU_ReadMem(4 bytes @ 0xE0001048) - Data: 00 00 00 00  returns 0x01 (0001ms, 0811ms total)
T2FB4 015:910 JLINK_ReadMemU32(0xE0001058, 0x0001 Items, ...) -- CPU_ReadMem(4 bytes @ 0xE0001058) - Data: 00 00 00 00  returns 0x01 (0001ms, 0812ms total)
T2FB4 015:911 JLINK_ReadReg(R0)  returns 0x2000002C (0000ms, 0812ms total)
T2FB4 015:911 JLINK_ReadReg(R1)  returns 0x20000034 (0000ms, 0812ms total)
T2FB4 015:911 JLINK_ReadReg(R2)  returns 0x20000030 (0000ms, 0812ms total)
T2FB4 015:911 JLINK_ReadReg(R3)  returns 0x20000038 (0000ms, 0812ms total)
T2FB4 015:912 JLINK_ReadReg(R4)  returns 0x080080D0 (0000ms, 0812ms total)
T2FB4 015:912 JLINK_ReadReg(R5)  returns 0x080080D0 (0000ms, 0812ms total)
T2FB4 015:912 JLINK_ReadReg(R6)  returns 0x00000000 (0000ms, 0812ms total)
T2FB4 015:912 JLINK_ReadReg(R7)  returns 0x00000000 (0000ms, 0812ms total)
T2FB4 015:912 JLINK_ReadReg(R8)  returns 0x00000000 (0000ms, 0812ms total)
T2FB4 015:912 JLINK_ReadReg(R9)  returns 0x00000000 (0000ms, 0812ms total)
T2FB4 015:912 JLINK_ReadReg(R10)  returns 0x00000000 (0000ms, 0812ms total)
T2FB4 015:912 JLINK_ReadReg(R11)  returns 0x00000000 (0000ms, 0812ms total)
T2FB4 015:912 JLINK_ReadReg(R12)  returns 0x00000168 (0000ms, 0812ms total)
T2FB4 015:912 JLINK_ReadReg(R13 (SP))  returns 0x20000EB8 (0000ms, 0812ms total)
T2FB4 015:912 JLINK_ReadReg(R14)  returns 0x0800321F (0000ms, 0812ms total)
T2FB4 015:912 JLINK_ReadReg(R15 (PC))  returns 0x080059D4 (0000ms, 0812ms total)
T2FB4 015:912 JLINK_ReadReg(XPSR)  returns 0x6100002D (0000ms, 0812ms total)
T2FB4 015:912 JLINK_ReadReg(MSP)  returns 0x20000EB8 (0000ms, 0812ms total)
T2FB4 015:912 JLINK_ReadReg(PSP)  returns 0x00000000 (0001ms, 0813ms total)
T2FB4 015:913 JLINK_ReadReg(CFBP)  returns 0x04000000 (0000ms, 0813ms total)
T2FB4 015:913 JLINK_ReadReg(FPSCR)  returns 0x00000000 (0005ms, 0818ms total)
T2FB4 015:918 JLINK_ReadReg(FPS0)  returns 0x3D4CCCCD (0000ms, 0818ms total)
T2FB4 015:918 JLINK_ReadReg(FPS1)  returns 0x3E4CCCCD (0000ms, 0818ms total)
T2FB4 015:918 JLINK_ReadReg(FPS2)  returns 0x43C78CCD (0000ms, 0818ms total)
T2FB4 015:918 JLINK_ReadReg(FPS3)  returns 0x3863953B (0000ms, 0818ms total)
T2FB4 015:918 JLINK_ReadReg(FPS4)  returns 0xB98E3D45 (0000ms, 0818ms total)
T2FB4 015:918 JLINK_ReadReg(FPS5)  returns 0x398E3D45 (0000ms, 0818ms total)
T2FB4 015:918 JLINK_ReadReg(FPS6)  returns 0x3A83126F (0000ms, 0818ms total)
T2FB4 015:918 JLINK_ReadReg(FPS7)  returns 0x00000000 (0001ms, 0819ms total)
T2FB4 015:919 JLINK_ReadReg(FPS8)  returns 0x00000000 (0000ms, 0819ms total)
T2FB4 015:919 JLINK_ReadReg(FPS9)  returns 0x00000000 (0000ms, 0819ms total)
T2FB4 015:919 JLINK_ReadReg(FPS10)  returns 0x00000000 (0000ms, 0819ms total)
T2FB4 015:919 JLINK_ReadReg(FPS11)  returns 0x00000000 (0000ms, 0819ms total)
T2FB4 015:919 JLINK_ReadReg(FPS12)  returns 0x00000000 (0000ms, 0819ms total)
T2FB4 015:919 JLINK_ReadReg(FPS13)  returns 0x00000000 (0000ms, 0819ms total)
T2FB4 015:919 JLINK_ReadReg(FPS14)  returns 0x00000000 (0000ms, 0819ms total)
T2FB4 015:919 JLINK_ReadReg(FPS15)  returns 0x00000000 (0000ms, 0819ms total)
T2FB4 015:919 JLINK_ReadReg(FPS16)  returns 0x00000000 (0000ms, 0819ms total)
T2FB4 015:919 JLINK_ReadReg(FPS17)  returns 0x00000000 (0000ms, 0819ms total)
T2FB4 015:919 JLINK_ReadReg(FPS18)  returns 0x00000000 (0000ms, 0819ms total)
T2FB4 015:919 JLINK_ReadReg(FPS19)  returns 0x00000000 (0000ms, 0819ms total)
T2FB4 015:919 JLINK_ReadReg(FPS20)  returns 0x00000000 (0000ms, 0819ms total)
T2FB4 015:919 JLINK_ReadReg(FPS21)  returns 0x00000000 (0000ms, 0819ms total)
T2FB4 015:919 JLINK_ReadReg(FPS22)  returns 0x00000000 (0001ms, 0820ms total)
T2FB4 015:920 JLINK_ReadReg(FPS23)  returns 0x00000000 (0000ms, 0820ms total)
T2FB4 015:920 JLINK_ReadReg(FPS24)  returns 0x00000000 (0000ms, 0820ms total)
T2FB4 015:920 JLINK_ReadReg(FPS25)  returns 0x00000000 (0000ms, 0820ms total)
T2FB4 015:920 JLINK_ReadReg(FPS26)  returns 0x00000000 (0000ms, 0820ms total)
T2FB4 015:920 JLINK_ReadReg(FPS27)  returns 0x00000000 (0000ms, 0820ms total)
T2FB4 015:920 JLINK_ReadReg(FPS28)  returns 0x00000000 (0000ms, 0820ms total)
T2FB4 015:920 JLINK_ReadReg(FPS29)  returns 0x00000000 (0000ms, 0820ms total)
T2FB4 015:920 JLINK_ReadReg(FPS30)  returns 0x00000000 (0000ms, 0820ms total)
T2FB4 015:920 JLINK_ReadReg(FPS31)  returns 0x00000000 (0000ms, 0820ms total)
T1818 015:927 JLINK_ReadMem (0x20000EBC, 0x0004 Bytes, ...) -- CPU_ReadMem(64 bytes @ 0x20000E80) -- Updating C cache (64 bytes @ 0x20000E80) -- Read from C cache (4 bytes @ 0x20000EBC) - Data: 8F 32 00 08  returns 0x00 (0001ms, 0821ms total)
T1818 015:928 JLINK_ReadMem (0x20000EB8, 0x0004 Bytes, ...) -- Read from C cache (4 bytes @ 0x20000EB8) - Data: D0 80 00 08  returns 0x00 (0000ms, 0821ms total)
T1818 015:928 JLINK_ReadMem (0x20000EC4, 0x0004 Bytes, ...) -- CPU_ReadMem(64 bytes @ 0x20000EC0) -- Updating C cache (64 bytes @ 0x20000EC0) -- Read from C cache (4 bytes @ 0x20000EC4) - Data: E9 FF FF FF  returns 0x00 (0002ms, 0823ms total)
T1818 015:930 JLINK_ReadMem (0x20000EE0, 0x0004 Bytes, ...) -- Read from C cache (4 bytes @ 0x20000EE0) - Data: A0 04 00 08  returns 0x00 (0001ms, 0824ms total)
T1818 015:931 JLINK_ReadMem (0x20000EE4, 0x0004 Bytes, ...) -- Read from C cache (4 bytes @ 0x20000EE4) - Data: 00 00 00 81  returns 0x00 (0000ms, 0824ms total)
T1818 015:931 JLINK_ReadMem (0x20000EDC, 0x0004 Bytes, ...) -- Read from C cache (4 bytes @ 0x20000EDC) - Data: 4D 04 00 08  returns 0x00 (0000ms, 0824ms total)
T1818 015:931 JLINK_ReadMem (0xE000ED28, 0x0004 Bytes, ...) -- CPU_ReadMem(4 bytes @ 0xE000ED28) - Data: 00 00 00 00  returns 0x00 (0001ms, 0825ms total)
T1818 015:932 JLINK_ReadMem (0x20000F2C, 0x0004 Bytes, ...) -- CPU_ReadMem(64 bytes @ 0x20000F00) -- Updating C cache (64 bytes @ 0x20000F00) -- Read from C cache (4 bytes @ 0x20000F2C) - Data: 49 04 00 08  returns 0x00 (0002ms, 0827ms total)
T1818 015:934 JLINK_ReadMem (0x20000F30, 0x0004 Bytes, ...) -- Read from C cache (4 bytes @ 0x20000F30) - Data: 08 FC 15 17  returns 0x00 (0000ms, 0827ms total)
T1818 015:935 JLINK_ReadMem (0x00000000, 0x0004 Bytes, ...) -- CPU_ReadMem(4 bytes @ 0x00000004) -- CPU_ReadMem(64 bytes @ 0x08000000) -- Updating C cache (64 bytes @ 0x08000000) -- Read from C cache (4 bytes @ 0x08000000) - Data: 30 0F 00 20  returns 0x00 (0002ms, 0829ms total)
T1818 015:938 JLINK_ReadMem (0x080059D4, 0x003C Bytes, ...) -- CPU_ReadMem(128 bytes @ 0x080059C0) -- Updating C cache (128 bytes @ 0x080059C0) -- Read from C cache (60 bytes @ 0x080059D4) - Data: 70 B5 2D ED 10 8B 82 B0 B0 EE 40 9A B0 EE 60 8A ...  returns 0x00 (0002ms, 0831ms total)
T2FB4 047:638 JLINK_Step() -- Read from C cache (2 bytes @ 0x080059D4) -- CPU_ReadMem(4 bytes @ 0xE000ED18) -- CPU_WriteMem(4 bytes @ 0xE000ED18) -- CPU_ReadMem(4 bytes @ 0xE000ED18) -- CPU_WriteMem(4 bytes @ 0xE000ED18) -- CPU_ReadMem(4 bytes @ 0xE0001004) -- CPU_WriteMem(16 bytes @ 0x20000EA8) -- Simulated  returns 0x00 (0007ms, 0838ms total)
T2FB4 047:645 JLINK_ReadReg(R15 (PC))  returns 0x080059D6 (0001ms, 0839ms total)
T2FB4 047:646 JLINK_ReadReg(XPSR)  returns 0x6100002D (0000ms, 0839ms total)
T2FB4 047:646 JLINK_ReadReg(R0)  returns 0x2000002C (0000ms, 0839ms total)
T2FB4 047:646 JLINK_ReadReg(R1)  returns 0x20000034 (0000ms, 0839ms total)
T2FB4 047:646 JLINK_ReadReg(R2)  returns 0x20000030 (0000ms, 0839ms total)
T2FB4 047:646 JLINK_ReadReg(R3)  returns 0x20000038 (0001ms, 0840ms total)
T2FB4 047:647 JLINK_ReadReg(R4)  returns 0x080080D0 (0000ms, 0840ms total)
T2FB4 047:647 JLINK_ReadReg(R5)  returns 0x080080D0 (0000ms, 0840ms total)
T2FB4 047:647 JLINK_ReadReg(R6)  returns 0x00000000 (0000ms, 0840ms total)
T2FB4 047:647 JLINK_ReadReg(R7)  returns 0x00000000 (0000ms, 0840ms total)
T2FB4 047:647 JLINK_ReadReg(R8)  returns 0x00000000 (0000ms, 0840ms total)
T2FB4 047:647 JLINK_ReadReg(R9)  returns 0x00000000 (0000ms, 0840ms total)
T2FB4 047:647 JLINK_ReadReg(R10)  returns 0x00000000 (0000ms, 0840ms total)
T2FB4 047:647 JLINK_ReadReg(R11)  returns 0x00000000 (0000ms, 0840ms total)
T2FB4 047:647 JLINK_ReadReg(R12)  returns 0x00000168 (0000ms, 0840ms total)
T2FB4 047:647 JLINK_ReadReg(R13 (SP))  returns 0x20000EA8 (0000ms, 0840ms total)
T2FB4 047:647 JLINK_ReadReg(R14)  returns 0x0800321F (0000ms, 0840ms total)
T2FB4 047:647 JLINK_ReadReg(R15 (PC))  returns 0x080059D6 (0000ms, 0840ms total)
T2FB4 047:647 JLINK_ReadReg(XPSR)  returns 0x6100002D (0000ms, 0840ms total)
T2FB4 047:647 JLINK_ReadReg(MSP)  returns 0x20000EA8 (0000ms, 0840ms total)
T2FB4 047:647 JLINK_ReadReg(PSP)  returns 0x00000000 (0001ms, 0841ms total)
T2FB4 047:648 JLINK_ReadReg(CFBP)  returns 0x04000000 (0000ms, 0841ms total)
T2FB4 047:648 JLINK_ReadReg(FPSCR)  returns 0x00000000 (0000ms, 0841ms total)
T2FB4 047:648 JLINK_ReadReg(FPS0)  returns 0x3D4CCCCD (0000ms, 0841ms total)
T2FB4 047:648 JLINK_ReadReg(FPS1)  returns 0x3E4CCCCD (0000ms, 0841ms total)
T2FB4 047:648 JLINK_ReadReg(FPS2)  returns 0x43C78CCD (0000ms, 0841ms total)
T2FB4 047:648 JLINK_ReadReg(FPS3)  returns 0x3863953B (0000ms, 0841ms total)
T2FB4 047:648 JLINK_ReadReg(FPS4)  returns 0xB98E3D45 (0000ms, 0841ms total)
T2FB4 047:648 JLINK_ReadReg(FPS5)  returns 0x398E3D45 (0000ms, 0841ms total)
T2FB4 047:648 JLINK_ReadReg(FPS6)  returns 0x3A83126F (0000ms, 0841ms total)
T2FB4 047:648 JLINK_ReadReg(FPS7)  returns 0x00000000 (0000ms, 0841ms total)
T2FB4 047:648 JLINK_ReadReg(FPS8)  returns 0x00000000 (0000ms, 0841ms total)
T2FB4 047:648 JLINK_ReadReg(FPS9)  returns 0x00000000 (0000ms, 0841ms total)
T2FB4 047:648 JLINK_ReadReg(FPS10)  returns 0x00000000 (0000ms, 0841ms total)
T2FB4 047:648 JLINK_ReadReg(FPS11)  returns 0x00000000 (0000ms, 0841ms total)
T2FB4 047:648 JLINK_ReadReg(FPS12)  returns 0x00000000 (0000ms, 0841ms total)
T2FB4 047:649 JLINK_ReadReg(FPS13)  returns 0x00000000 (0000ms, 0842ms total)
T2FB4 047:649 JLINK_ReadReg(FPS14)  returns 0x00000000 (0000ms, 0842ms total)
T2FB4 047:649 JLINK_ReadReg(FPS15)  returns 0x00000000 (0000ms, 0842ms total)
T2FB4 047:649 JLINK_ReadReg(FPS16)  returns 0x00000000 (0000ms, 0842ms total)
T2FB4 047:649 JLINK_ReadReg(FPS17)  returns 0x00000000 (0000ms, 0842ms total)
T2FB4 047:649 JLINK_ReadReg(FPS18)  returns 0x00000000 (0000ms, 0842ms total)
T2FB4 047:649 JLINK_ReadReg(FPS19)  returns 0x00000000 (0000ms, 0842ms total)
T2FB4 047:649 JLINK_ReadReg(FPS20)  returns 0x00000000 (0000ms, 0842ms total)
T2FB4 047:649 JLINK_ReadReg(FPS21)  returns 0x00000000 (0000ms, 0842ms total)
T2FB4 047:649 JLINK_ReadReg(FPS22)  returns 0x00000000 (0000ms, 0842ms total)
T2FB4 047:649 JLINK_ReadReg(FPS23)  returns 0x00000000 (0000ms, 0842ms total)
T2FB4 047:649 JLINK_ReadReg(FPS24)  returns 0x00000000 (0000ms, 0842ms total)
T2FB4 047:649 JLINK_ReadReg(FPS25)  returns 0x00000000 (0000ms, 0842ms total)
T2FB4 047:649 JLINK_ReadReg(FPS26)  returns 0x00000000 (0000ms, 0842ms total)
T2FB4 047:649 JLINK_ReadReg(FPS27)  returns 0x00000000 (0000ms, 0842ms total)
T2FB4 047:649 JLINK_ReadReg(FPS28)  returns 0x00000000 (0001ms, 0843ms total)
T2FB4 047:650 JLINK_ReadReg(FPS29)  returns 0x00000000 (0000ms, 0843ms total)
T2FB4 047:650 JLINK_ReadReg(FPS30)  returns 0x00000000 (0000ms, 0843ms total)
T2FB4 047:650 JLINK_ReadReg(FPS31)  returns 0x00000000 (0000ms, 0843ms total)
T1818 047:650 JLINK_ReadMem (0x20000EB4, 0x0004 Bytes, ...) -- CPU_ReadMem(64 bytes @ 0x20000E80) -- Updating C cache (64 bytes @ 0x20000E80) -- Read from C cache (4 bytes @ 0x20000EB4) - Data: 1F 32 00 08  returns 0x00 (0002ms, 0845ms total)
T1818 047:652 JLINK_ReadMem (0x20000EA8, 0x0004 Bytes, ...) -- Read from C cache (4 bytes @ 0x20000EA8) - Data: D0 80 00 08  returns 0x00 (0000ms, 0845ms total)
T1818 047:652 JLINK_ReadMem (0x20000EAC, 0x0004 Bytes, ...) -- Read from C cache (4 bytes @ 0x20000EAC) - Data: D0 80 00 08  returns 0x00 (0000ms, 0845ms total)
T1818 047:652 JLINK_ReadMem (0x20000EB0, 0x0004 Bytes, ...) -- Read from C cache (4 bytes @ 0x20000EB0) - Data: 00 00 00 00  returns 0x00 (0000ms, 0845ms total)
T1818 047:652 JLINK_ReadMem (0x20000EBC, 0x0004 Bytes, ...) -- Read from C cache (4 bytes @ 0x20000EBC) - Data: 8F 32 00 08  returns 0x00 (0000ms, 0845ms total)
T1818 047:652 JLINK_ReadMem (0x20000EB8, 0x0004 Bytes, ...) -- Read from C cache (4 bytes @ 0x20000EB8) - Data: D0 80 00 08  returns 0x00 (0000ms, 0845ms total)
T1818 047:652 JLINK_ReadMem (0x20000EC4, 0x0004 Bytes, ...) -- Read from C cache (4 bytes @ 0x20000EC4) - Data: E9 FF FF FF  returns 0x00 (0000ms, 0845ms total)
T1818 047:652 JLINK_ReadMem (0x20000EE0, 0x0004 Bytes, ...) -- Read from C cache (4 bytes @ 0x20000EE0) - Data: A0 04 00 08  returns 0x00 (0000ms, 0845ms total)
T1818 047:652 JLINK_ReadMem (0x20000EE4, 0x0004 Bytes, ...) -- Read from C cache (4 bytes @ 0x20000EE4) - Data: 00 00 00 81  returns 0x00 (0001ms, 0846ms total)
T1818 047:653 JLINK_ReadMem (0x20000EDC, 0x0004 Bytes, ...) -- Read from C cache (4 bytes @ 0x20000EDC) - Data: 4D 04 00 08  returns 0x00 (0000ms, 0846ms total)
T1818 047:653 JLINK_ReadMem (0xE000ED28, 0x0004 Bytes, ...) -- CPU_ReadMem(4 bytes @ 0xE000ED28) - Data: 00 00 00 00  returns 0x00 (0001ms, 0847ms total)
T1818 047:654 JLINK_ReadMem (0x20000F2C, 0x0004 Bytes, ...) -- Read from C cache (4 bytes @ 0x20000F2C) - Data: 49 04 00 08  returns 0x00 (0000ms, 0847ms total)
T1818 047:654 JLINK_ReadMem (0x20000F30, 0x0004 Bytes, ...) -- Read from C cache (4 bytes @ 0x20000F30) - Data: 08 FC 15 17  returns 0x00 (0000ms, 0847ms total)
T1818 047:654 JLINK_ReadMem (0x00000000, 0x0004 Bytes, ...) -- Read from C cache (4 bytes @ 0x08000000) - Data: 30 0F 00 20  returns 0x00 (0000ms, 0847ms total)
T1818 047:660 JLINK_ReadMem (0x080059D6, 0x0002 Bytes, ...) -- Read from C cache (2 bytes @ 0x080059D6) - Data: 2D ED  returns 0x00 (0000ms, 0847ms total)
T1818 047:660 JLINK_ReadMem (0x080059D8, 0x003C Bytes, ...) -- Read from C cache (60 bytes @ 0x080059D8) - Data: 10 8B 82 B0 B0 EE 40 9A B0 EE 60 8A F0 EE 41 8A ...  returns 0x00 (0000ms, 0847ms total)
T2FB4 048:549 JLINK_Step() -- Read from C cache (2 bytes @ 0x080059D6) -- Read from C cache (2 bytes @ 0x080059D8) -- Not simulated -- CPU_WriteMem(4 bytes @ 0xE0002008) -- CPU_WriteMem(4 bytes @ 0xE0001004)  returns 0x00 (0009ms, 0856ms total)
T2FB4 048:558 JLINK_ReadReg(R15 (PC))  returns 0x080059DA (0000ms, 0856ms total)
T2FB4 048:558 JLINK_ReadReg(XPSR)  returns 0x6100002D (0000ms, 0856ms total)
T2FB4 048:559 JLINK_ReadReg(R0)  returns 0x2000002C (0000ms, 0856ms total)
T2FB4 048:559 JLINK_ReadReg(R1)  returns 0x20000034 (0000ms, 0856ms total)
T2FB4 048:559 JLINK_ReadReg(R2)  returns 0x20000030 (0000ms, 0856ms total)
T2FB4 048:559 JLINK_ReadReg(R3)  returns 0x20000038 (0000ms, 0856ms total)
T2FB4 048:559 JLINK_ReadReg(R4)  returns 0x080080D0 (0000ms, 0856ms total)
T2FB4 048:560 JLINK_ReadReg(R5)  returns 0x080080D0 (0000ms, 0857ms total)
T2FB4 048:560 JLINK_ReadReg(R6)  returns 0x00000000 (0000ms, 0857ms total)
T2FB4 048:560 JLINK_ReadReg(R7)  returns 0x00000000 (0000ms, 0857ms total)
T2FB4 048:560 JLINK_ReadReg(R8)  returns 0x00000000 (0000ms, 0857ms total)
T2FB4 048:560 JLINK_ReadReg(R9)  returns 0x00000000 (0000ms, 0857ms total)
T2FB4 048:560 JLINK_ReadReg(R10)  returns 0x00000000 (0000ms, 0857ms total)
T2FB4 048:560 JLINK_ReadReg(R11)  returns 0x00000000 (0000ms, 0857ms total)
T2FB4 048:560 JLINK_ReadReg(R12)  returns 0x00000168 (0000ms, 0857ms total)
T2FB4 048:560 JLINK_ReadReg(R13 (SP))  returns 0x20000E68 (0000ms, 0857ms total)
T2FB4 048:560 JLINK_ReadReg(R14)  returns 0x0800321F (0000ms, 0857ms total)
T2FB4 048:560 JLINK_ReadReg(R15 (PC))  returns 0x080059DA (0000ms, 0857ms total)
T2FB4 048:560 JLINK_ReadReg(XPSR)  returns 0x6100002D (0000ms, 0857ms total)
T2FB4 048:560 JLINK_ReadReg(MSP)  returns 0x20000E68 (0000ms, 0857ms total)
T2FB4 048:560 JLINK_ReadReg(PSP)  returns 0x00000000 (0000ms, 0857ms total)
T2FB4 048:560 JLINK_ReadReg(CFBP)  returns 0x04000000 (0000ms, 0857ms total)
T2FB4 048:561 JLINK_ReadReg(FPSCR)  returns 0x00000000 (0005ms, 0863ms total)
T2FB4 048:566 JLINK_ReadReg(FPS0)  returns 0x3D4CCCCD (0000ms, 0863ms total)
T2FB4 048:566 JLINK_ReadReg(FPS1)  returns 0x3E4CCCCD (0000ms, 0863ms total)
T2FB4 048:566 JLINK_ReadReg(FPS2)  returns 0x43C78CCD (0000ms, 0863ms total)
T2FB4 048:566 JLINK_ReadReg(FPS3)  returns 0x3863953B (0000ms, 0863ms total)
T2FB4 048:566 JLINK_ReadReg(FPS4)  returns 0xB98E3D45 (0000ms, 0863ms total)
T2FB4 048:566 JLINK_ReadReg(FPS5)  returns 0x398E3D45 (0000ms, 0863ms total)
T2FB4 048:566 JLINK_ReadReg(FPS6)  returns 0x3A83126F (0001ms, 0864ms total)
T2FB4 048:567 JLINK_ReadReg(FPS7)  returns 0x00000000 (0000ms, 0864ms total)
T2FB4 048:567 JLINK_ReadReg(FPS8)  returns 0x00000000 (0000ms, 0864ms total)
T2FB4 048:567 JLINK_ReadReg(FPS9)  returns 0x00000000 (0000ms, 0864ms total)
T2FB4 048:567 JLINK_ReadReg(FPS10)  returns 0x00000000 (0000ms, 0864ms total)
T2FB4 048:567 JLINK_ReadReg(FPS11)  returns 0x00000000 (0000ms, 0864ms total)
T2FB4 048:567 JLINK_ReadReg(FPS12)  returns 0x00000000 (0000ms, 0864ms total)
T2FB4 048:567 JLINK_ReadReg(FPS13)  returns 0x00000000 (0000ms, 0864ms total)
T2FB4 048:567 JLINK_ReadReg(FPS14)  returns 0x00000000 (0000ms, 0864ms total)
T2FB4 048:567 JLINK_ReadReg(FPS15)  returns 0x00000000 (0000ms, 0864ms total)
T2FB4 048:567 JLINK_ReadReg(FPS16)  returns 0x00000000 (0000ms, 0864ms total)
T2FB4 048:567 JLINK_ReadReg(FPS17)  returns 0x00000000 (0000ms, 0864ms total)
T2FB4 048:567 JLINK_ReadReg(FPS18)  returns 0x00000000 (0000ms, 0864ms total)
T2FB4 048:567 JLINK_ReadReg(FPS19)  returns 0x00000000 (0000ms, 0864ms total)
T2FB4 048:567 JLINK_ReadReg(FPS20)  returns 0x00000000 (0000ms, 0864ms total)
T2FB4 048:567 JLINK_ReadReg(FPS21)  returns 0x00000000 (0001ms, 0865ms total)
T2FB4 048:568 JLINK_ReadReg(FPS22)  returns 0x00000000 (0000ms, 0865ms total)
T2FB4 048:568 JLINK_ReadReg(FPS23)  returns 0x00000000 (0000ms, 0865ms total)
T2FB4 048:568 JLINK_ReadReg(FPS24)  returns 0x00000000 (0000ms, 0865ms total)
T2FB4 048:568 JLINK_ReadReg(FPS25)  returns 0x00000000 (0000ms, 0865ms total)
T2FB4 048:568 JLINK_ReadReg(FPS26)  returns 0x00000000 (0000ms, 0865ms total)
T2FB4 048:568 JLINK_ReadReg(FPS27)  returns 0x00000000 (0000ms, 0865ms total)
T2FB4 048:568 JLINK_ReadReg(FPS28)  returns 0x00000000 (0000ms, 0865ms total)
T2FB4 048:568 JLINK_ReadReg(FPS29)  returns 0x00000000 (0000ms, 0865ms total)
T2FB4 048:568 JLINK_ReadReg(FPS30)  returns 0x00000000 (0000ms, 0865ms total)
T2FB4 048:568 JLINK_ReadReg(FPS31)  returns 0x00000000 (0000ms, 0865ms total)
T1818 048:569 JLINK_ReadMem (0x20000EB4, 0x0004 Bytes, ...) -- CPU_ReadMem(64 bytes @ 0x20000E80) -- Updating C cache (64 bytes @ 0x20000E80) -- Read from C cache (4 bytes @ 0x20000EB4) - Data: 1F 32 00 08  returns 0x00 (0001ms, 0866ms total)
T1818 048:570 JLINK_ReadMem (0x20000EA8, 0x0004 Bytes, ...) -- Read from C cache (4 bytes @ 0x20000EA8) - Data: D0 80 00 08  returns 0x00 (0000ms, 0866ms total)
T1818 048:570 JLINK_ReadMem (0x20000EAC, 0x0004 Bytes, ...) -- Read from C cache (4 bytes @ 0x20000EAC) - Data: D0 80 00 08  returns 0x00 (0000ms, 0866ms total)
T1818 048:570 JLINK_ReadMem (0x20000EB0, 0x0004 Bytes, ...) -- Read from C cache (4 bytes @ 0x20000EB0) - Data: 00 00 00 00  returns 0x00 (0000ms, 0866ms total)
T1818 048:570 JLINK_ReadMem (0x20000EBC, 0x0004 Bytes, ...) -- Read from C cache (4 bytes @ 0x20000EBC) - Data: 8F 32 00 08  returns 0x00 (0000ms, 0866ms total)
T1818 048:570 JLINK_ReadMem (0x20000EB8, 0x0004 Bytes, ...) -- Read from C cache (4 bytes @ 0x20000EB8) - Data: D0 80 00 08  returns 0x00 (0001ms, 0867ms total)
T1818 048:571 JLINK_ReadMem (0x20000EC4, 0x0004 Bytes, ...) -- CPU_ReadMem(64 bytes @ 0x20000EC0) -- Updating C cache (64 bytes @ 0x20000EC0) -- Read from C cache (4 bytes @ 0x20000EC4) - Data: E9 FF FF FF  returns 0x00 (0001ms, 0868ms total)
T1818 048:572 JLINK_ReadMem (0x20000EE0, 0x0004 Bytes, ...) -- Read from C cache (4 bytes @ 0x20000EE0) - Data: A0 04 00 08  returns 0x00 (0000ms, 0868ms total)
T1818 048:572 JLINK_ReadMem (0x20000EE4, 0x0004 Bytes, ...) -- Read from C cache (4 bytes @ 0x20000EE4) - Data: 00 00 00 81  returns 0x00 (0000ms, 0868ms total)
T1818 048:572 JLINK_ReadMem (0x20000EDC, 0x0004 Bytes, ...) -- Read from C cache (4 bytes @ 0x20000EDC) - Data: 4D 04 00 08  returns 0x00 (0000ms, 0868ms total)
T1818 048:572 JLINK_ReadMem (0xE000ED28, 0x0004 Bytes, ...) -- CPU_ReadMem(4 bytes @ 0xE000ED28) - Data: 00 00 00 00  returns 0x00 (0001ms, 0869ms total)
T1818 048:573 JLINK_ReadMem (0x20000F2C, 0x0004 Bytes, ...) -- CPU_ReadMem(64 bytes @ 0x20000F00) -- Updating C cache (64 bytes @ 0x20000F00) -- Read from C cache (4 bytes @ 0x20000F2C) - Data: 49 04 00 08  returns 0x00 (0002ms, 0871ms total)
T1818 048:575 JLINK_ReadMem (0x20000F30, 0x0004 Bytes, ...) -- Read from C cache (4 bytes @ 0x20000F30) - Data: 08 FC 15 17  returns 0x00 (0000ms, 0871ms total)
T1818 048:575 JLINK_ReadMem (0x00000000, 0x0004 Bytes, ...) -- CPU_ReadMem(4 bytes @ 0x00000004) -- CPU_ReadMem(64 bytes @ 0x08000000) -- Updating C cache (64 bytes @ 0x08000000) -- Read from C cache (4 bytes @ 0x08000000) - Data: 30 0F 00 20  returns 0x00 (0003ms, 0874ms total)
T2FB4 049:133 JLINK_Step() -- CPU_ReadMem(64 bytes @ 0x080059C0) -- Updating C cache (64 bytes @ 0x080059C0) -- Read from C cache (2 bytes @ 0x080059DA) -- CPU_ReadMem(4 bytes @ 0xE0001004) -- Simulated  returns 0x00 (0005ms, 0879ms total)
T2FB4 049:138 JLINK_ReadReg(R15 (PC))  returns 0x080059DC (0000ms, 0879ms total)
T2FB4 049:138 JLINK_ReadReg(XPSR)  returns 0x6100002D (0000ms, 0879ms total)
T2FB4 049:138 JLINK_ReadReg(R0)  returns 0x2000002C (0001ms, 0880ms total)
T2FB4 049:139 JLINK_ReadReg(R1)  returns 0x20000034 (0000ms, 0880ms total)
T2FB4 049:139 JLINK_ReadReg(R2)  returns 0x20000030 (0000ms, 0880ms total)
T2FB4 049:139 JLINK_ReadReg(R3)  returns 0x20000038 (0000ms, 0880ms total)
T2FB4 049:139 JLINK_ReadReg(R4)  returns 0x080080D0 (0000ms, 0880ms total)
T2FB4 049:139 JLINK_ReadReg(R5)  returns 0x080080D0 (0000ms, 0880ms total)
T2FB4 049:139 JLINK_ReadReg(R6)  returns 0x00000000 (0000ms, 0880ms total)
T2FB4 049:139 JLINK_ReadReg(R7)  returns 0x00000000 (0000ms, 0880ms total)
T2FB4 049:139 JLINK_ReadReg(R8)  returns 0x00000000 (0000ms, 0880ms total)
T2FB4 049:139 JLINK_ReadReg(R9)  returns 0x00000000 (0000ms, 0880ms total)
T2FB4 049:139 JLINK_ReadReg(R10)  returns 0x00000000 (0000ms, 0880ms total)
T2FB4 049:139 JLINK_ReadReg(R11)  returns 0x00000000 (0000ms, 0880ms total)
T2FB4 049:139 JLINK_ReadReg(R12)  returns 0x00000168 (0000ms, 0880ms total)
T2FB4 049:139 JLINK_ReadReg(R13 (SP))  returns 0x20000E60 (0000ms, 0880ms total)
T2FB4 049:139 JLINK_ReadReg(R14)  returns 0x0800321F (0000ms, 0880ms total)
T2FB4 049:140 JLINK_ReadReg(R15 (PC))  returns 0x080059DC (0000ms, 0881ms total)
T2FB4 049:140 JLINK_ReadReg(XPSR)  returns 0x6100002D (0000ms, 0881ms total)
T2FB4 049:140 JLINK_ReadReg(MSP)  returns 0x20000E60 (0000ms, 0881ms total)
T2FB4 049:140 JLINK_ReadReg(PSP)  returns 0x00000000 (0000ms, 0881ms total)
T2FB4 049:140 JLINK_ReadReg(CFBP)  returns 0x04000000 (0000ms, 0881ms total)
T2FB4 049:140 JLINK_ReadReg(FPSCR)  returns 0x00000000 (0000ms, 0881ms total)
T2FB4 049:140 JLINK_ReadReg(FPS0)  returns 0x3D4CCCCD (0000ms, 0881ms total)
T2FB4 049:140 JLINK_ReadReg(FPS1)  returns 0x3E4CCCCD (0000ms, 0881ms total)
T2FB4 049:140 JLINK_ReadReg(FPS2)  returns 0x43C78CCD (0000ms, 0881ms total)
T2FB4 049:140 JLINK_ReadReg(FPS3)  returns 0x3863953B (0000ms, 0881ms total)
T2FB4 049:140 JLINK_ReadReg(FPS4)  returns 0xB98E3D45 (0000ms, 0881ms total)
T2FB4 049:140 JLINK_ReadReg(FPS5)  returns 0x398E3D45 (0000ms, 0881ms total)
T2FB4 049:140 JLINK_ReadReg(FPS6)  returns 0x3A83126F (0000ms, 0881ms total)
T2FB4 049:140 JLINK_ReadReg(FPS7)  returns 0x00000000 (0000ms, 0881ms total)
T2FB4 049:140 JLINK_ReadReg(FPS8)  returns 0x00000000 (0000ms, 0881ms total)
T2FB4 049:140 JLINK_ReadReg(FPS9)  returns 0x00000000 (0001ms, 0882ms total)
T2FB4 049:141 JLINK_ReadReg(FPS10)  returns 0x00000000 (0000ms, 0882ms total)
T2FB4 049:141 JLINK_ReadReg(FPS11)  returns 0x00000000 (0000ms, 0882ms total)
T2FB4 049:141 JLINK_ReadReg(FPS12)  returns 0x00000000 (0000ms, 0882ms total)
T2FB4 049:141 JLINK_ReadReg(FPS13)  returns 0x00000000 (0000ms, 0882ms total)
T2FB4 049:141 JLINK_ReadReg(FPS14)  returns 0x00000000 (0000ms, 0882ms total)
T2FB4 049:141 JLINK_ReadReg(FPS15)  returns 0x00000000 (0000ms, 0882ms total)
T2FB4 049:141 JLINK_ReadReg(FPS16)  returns 0x00000000 (0000ms, 0882ms total)
T2FB4 049:141 JLINK_ReadReg(FPS17)  returns 0x00000000 (0000ms, 0882ms total)
T2FB4 049:141 JLINK_ReadReg(FPS18)  returns 0x00000000 (0000ms, 0882ms total)
T2FB4 049:141 JLINK_ReadReg(FPS19)  returns 0x00000000 (0000ms, 0882ms total)
T2FB4 049:141 JLINK_ReadReg(FPS20)  returns 0x00000000 (0000ms, 0882ms total)
T2FB4 049:141 JLINK_ReadReg(FPS21)  returns 0x00000000 (0000ms, 0882ms total)
T2FB4 049:141 JLINK_ReadReg(FPS22)  returns 0x00000000 (0000ms, 0882ms total)
T2FB4 049:141 JLINK_ReadReg(FPS23)  returns 0x00000000 (0000ms, 0882ms total)
T2FB4 049:141 JLINK_ReadReg(FPS24)  returns 0x00000000 (0001ms, 0883ms total)
T2FB4 049:142 JLINK_ReadReg(FPS25)  returns 0x00000000 (0000ms, 0883ms total)
T2FB4 049:142 JLINK_ReadReg(FPS26)  returns 0x00000000 (0000ms, 0883ms total)
T2FB4 049:142 JLINK_ReadReg(FPS27)  returns 0x00000000 (0000ms, 0883ms total)
T2FB4 049:142 JLINK_ReadReg(FPS28)  returns 0x00000000 (0000ms, 0883ms total)
T2FB4 049:142 JLINK_ReadReg(FPS29)  returns 0x00000000 (0000ms, 0883ms total)
T2FB4 049:142 JLINK_ReadReg(FPS30)  returns 0x00000000 (0000ms, 0883ms total)
T2FB4 049:142 JLINK_ReadReg(FPS31)  returns 0x00000000 (0000ms, 0883ms total)
T1818 049:142 JLINK_ReadMem (0x20000EB4, 0x0004 Bytes, ...) -- Read from C cache (4 bytes @ 0x20000EB4) - Data: 1F 32 00 08  returns 0x00 (0000ms, 0883ms total)
T1818 049:142 JLINK_ReadMem (0x20000EA8, 0x0004 Bytes, ...) -- Read from C cache (4 bytes @ 0x20000EA8) - Data: D0 80 00 08  returns 0x00 (0001ms, 0884ms total)
T1818 049:143 JLINK_ReadMem (0x20000EAC, 0x0004 Bytes, ...) -- Read from C cache (4 bytes @ 0x20000EAC) - Data: D0 80 00 08  returns 0x00 (0000ms, 0884ms total)
T1818 049:143 JLINK_ReadMem (0x20000EB0, 0x0004 Bytes, ...) -- Read from C cache (4 bytes @ 0x20000EB0) - Data: 00 00 00 00  returns 0x00 (0000ms, 0884ms total)
T1818 049:143 JLINK_ReadMem (0x20000EBC, 0x0004 Bytes, ...) -- Read from C cache (4 bytes @ 0x20000EBC) - Data: 8F 32 00 08  returns 0x00 (0000ms, 0884ms total)
T1818 049:143 JLINK_ReadMem (0x20000EB8, 0x0004 Bytes, ...) -- Read from C cache (4 bytes @ 0x20000EB8) - Data: D0 80 00 08  returns 0x00 (0000ms, 0884ms total)
T1818 049:143 JLINK_ReadMem (0x20000EC4, 0x0004 Bytes, ...) -- Read from C cache (4 bytes @ 0x20000EC4) - Data: E9 FF FF FF  returns 0x00 (0000ms, 0884ms total)
T1818 049:143 JLINK_ReadMem (0x20000EE0, 0x0004 Bytes, ...) -- Read from C cache (4 bytes @ 0x20000EE0) - Data: A0 04 00 08  returns 0x00 (0000ms, 0884ms total)
T1818 049:143 JLINK_ReadMem (0x20000EE4, 0x0004 Bytes, ...) -- Read from C cache (4 bytes @ 0x20000EE4) - Data: 00 00 00 81  returns 0x00 (0000ms, 0884ms total)
T1818 049:143 JLINK_ReadMem (0x20000EDC, 0x0004 Bytes, ...) -- Read from C cache (4 bytes @ 0x20000EDC) - Data: 4D 04 00 08  returns 0x00 (0001ms, 0885ms total)
T1818 049:144 JLINK_ReadMem (0xE000ED28, 0x0004 Bytes, ...) -- CPU_ReadMem(4 bytes @ 0xE000ED28) - Data: 00 00 00 00  returns 0x00 (0001ms, 0886ms total)
T1818 049:145 JLINK_ReadMem (0x20000F2C, 0x0004 Bytes, ...) -- Read from C cache (4 bytes @ 0x20000F2C) - Data: 49 04 00 08  returns 0x00 (0000ms, 0886ms total)
T1818 049:145 JLINK_ReadMem (0x20000F30, 0x0004 Bytes, ...) -- Read from C cache (4 bytes @ 0x20000F30) - Data: 08 FC 15 17  returns 0x00 (0000ms, 0886ms total)
T1818 049:145 JLINK_ReadMem (0x00000000, 0x0004 Bytes, ...) -- Read from C cache (4 bytes @ 0x08000000) - Data: 30 0F 00 20  returns 0x00 (0000ms, 0886ms total)
T2FB4 049:518 JLINK_Step() -- Read from C cache (2 bytes @ 0x080059DC) -- Read from C cache (2 bytes @ 0x080059DE) -- Not simulated -- CPU_WriteMem(4 bytes @ 0xE0001004)  returns 0x00 (0007ms, 0893ms total)
T2FB4 049:525 JLINK_ReadReg(R15 (PC))  returns 0x080059E0 (0000ms, 0893ms total)
T2FB4 049:525 JLINK_ReadReg(XPSR)  returns 0x6100002D (0000ms, 0893ms total)
T2FB4 049:526 JLINK_ReadReg(R0)  returns 0x2000002C (0000ms, 0893ms total)
T2FB4 049:526 JLINK_ReadReg(R1)  returns 0x20000034 (0000ms, 0893ms total)
T2FB4 049:526 JLINK_ReadReg(R2)  returns 0x20000030 (0000ms, 0893ms total)
T2FB4 049:526 JLINK_ReadReg(R3)  returns 0x20000038 (0000ms, 0893ms total)
T2FB4 049:526 JLINK_ReadReg(R4)  returns 0x080080D0 (0000ms, 0893ms total)
T2FB4 049:526 JLINK_ReadReg(R5)  returns 0x080080D0 (0000ms, 0893ms total)
T2FB4 049:526 JLINK_ReadReg(R6)  returns 0x00000000 (0000ms, 0893ms total)
T2FB4 049:526 JLINK_ReadReg(R7)  returns 0x00000000 (0000ms, 0893ms total)
T2FB4 049:526 JLINK_ReadReg(R8)  returns 0x00000000 (0000ms, 0893ms total)
T2FB4 049:526 JLINK_ReadReg(R9)  returns 0x00000000 (0000ms, 0893ms total)
